
T5208 000:001 SEGGER J-Link V6.16c Log File (0000ms, 0001ms total)
T5208 000:001 DLL Compiled: Jun 16 2017 18:14:49 (0000ms, 0001ms total)
T5208 000:001 Logging started @ 2021-06-25 19:38 (0000ms, 0001ms total)
T5208 000:002 JLINK_SetWarnOutHandler(...) (0000ms, 0001ms total)
T5208 000:002 JLINK_OpenEx(...)
Firmware: J-Link V9 compiled Jul 19 2017 16:11:45
Hardware: V9.20
S/N: 29999997
Feature(s): GDB, RDI, FlashBP, FlashDL, JFlash, RDDIWEBSRV Webserver running on local port 19080 (0026ms, 0027ms total)
T5208 000:002   returns O.K. (0026ms, 0027ms total)
T5208 000:028 JLINK_GetEmuCaps()  returns 0xB9FF7BBF (0000ms, 0027ms total)
T5208 000:028 JLINK_TIF_GetAvailable(...) (0000ms, 0027ms total)
T5208 000:028 JLINK_SetErrorOutHandler(...) (0000ms, 0027ms total)
T5208 000:028 JLINK_ExecCommand("ProjectFile = "I:\Projects\Pampers\Examples\peripheral\pin_change_int\pca10028\arm5\JLinkSettings.ini"", ...).   returns 0x00 (0149ms, 0176ms total)
T5208 000:177 JLINK_ExecCommand("Device = nRF51422_xxAC", ...). Device "NRF51422_XXAC" selected.  returns 0x00 (0002ms, 0178ms total)
T5208 000:179 JLINK_ExecCommand("DisableConnectionTimeout", ...).   returns 0x01 (0000ms, 0178ms total)
T5208 000:179 JLINK_GetHardwareVersion()  returns 0x16760 (0000ms, 0178ms total)
T5208 000:179 JLINK_GetDLLVersion()  returns 61603 (0000ms, 0178ms total)
T5208 000:179 JLINK_GetFirmwareString(...) (0000ms, 0178ms total)
T5208 000:179 JLINK_GetDLLVersion()  returns 61603 (0000ms, 0178ms total)
T5208 000:179 JLINK_GetCompileDateTime() (0000ms, 0178ms total)
T5208 000:179 JLINK_GetFirmwareString(...) (0000ms, 0178ms total)
T5208 000:179 JLINK_GetHardwareVersion()  returns 0x16760 (0000ms, 0178ms total)
T5208 000:179 JLINK_TIF_Select(JLINKARM_TIF_SWD)  returns 0x00 (0002ms, 0180ms total)
T5208 000:181 JLINK_SetSpeed(5000) (0001ms, 0181ms total)
T5208 000:182 JLINK_GetId() >0x10B TIF>Found SW-DP with ID 0x0BB11477 >0x0D TIF> >0x28 TIF> >0x0D TIF> >0x28 TIF> >0x0D TIF> >0x28 TIF> >0x0D TIF> >0x28 TIF> >0x35 TIF> >0x0D TIF> >0x28 TIF>Scanning APs, stopping at first AHB-AP found. >0x0D TIF> >0x28 TIF> >0x35 TIF> >0x35 TIF>AP[0] IDR: 0x04770021 (AHB-AP) >0x0D TIF> >0x28 TIF> >0x35 TIF> >0x35 TIF>AHB-AP ROM: 0xF0000000 (Base addr. of first ROM table) >0x0D TIF> >0x28 TIF> >0x0D TIF> >0x28 TIF> >0x0D TIF> >0x28 TIF> >0x35 TIF> >0x35 TIF> >0x0D TIF>
 >0x28 TIF> >0x35 TIF> >0x35 TIF>CPUID reg: 0x410CC200. Implementer code: 0x41 (ARM)Found Cortex-M0 r0p0, Little endian. -- CPU_ReadMem(4 bytes @ 0xE000EDF0) -- CPU_WriteMem(4 bytes @ 0xE000EDF0) -- CPU_ReadMem(4 bytes @ 0xE0002000)FPUnit: 4 code (BP) slots and 0 literal slots -- CPU_ReadMem(4 bytes @ 0xE000EDFC) -- CPU_WriteMem(4 bytes @ 0xE000EDFC) -- CPU_ReadMem(4 bytes @ 0xE0001000) -- CPU_WriteMem(4 bytes @ 0xE0001000)CoreSight components:ROMTbl[0] @ F0000000 -- CPU_ReadMem(16 bytes @ 0xF0000000)
 -- CPU_ReadMem(16 bytes @ 0xE00FFFF0) -- CPU_ReadMem(16 bytes @ 0xE00FFFE0)ROMTbl[0][0]: E00FF000, CID: B105100D, PID: 000BB471 ROM TableROMTbl[1] @ E00FF000 -- CPU_ReadMem(16 bytes @ 0xE00FF000) -- CPU_ReadMem(16 bytes @ 0xE000EFF0) -- CPU_ReadMem(16 bytes @ 0xE000EFE0)ROMTbl[1][0]: E000E000, CID: B105E00D, PID: 000BB008 SCS -- CPU_ReadMem(16 bytes @ 0xE0001FF0) -- CPU_ReadMem(16 bytes @ 0xE0001FE0)ROMTbl[1][1]: E0001000, CID: B105E00D, PID: 000BB00A DWT -- CPU_ReadMem(16 bytes @ 0xE0002FF0)
 -- CPU_ReadMem(16 bytes @ 0xE0002FE0)ROMTbl[1][2]: E0002000, CID: B105E00D, PID: 000BB00B FPB -- CPU_ReadMem(16 bytes @ 0xF0002FF0) -- CPU_ReadMem(16 bytes @ 0xF0002FE0)ROMTbl[0][1]: F0002000, CID: B105900D, PID: 000BB9A3 ??? -- CPU_ReadMem(4 bytes @ 0x10001004) >0x35 TIF>  returns 0x0BB11477 (0030ms, 0211ms total)
T5208 000:212 JLINK_GetDLLVersion()  returns 61603 (0000ms, 0211ms total)
T5208 000:212 JLINK_CORE_GetFound()  returns 0x60000FF (0000ms, 0211ms total)
T5208 000:212 JLINK_GetDebugInfo(0x100 = JLINKARM_ROM_TABLE_ADDR_INDEX) -- Value=0xF0000000  returns 0x00 (0000ms, 0211ms total)
T5208 000:212 JLINK_GetDebugInfo(0x100 = JLINKARM_ROM_TABLE_ADDR_INDEX) -- Value=0xF0000000  returns 0x00 (0000ms, 0211ms total)
T5208 000:212 JLINK_GetDebugInfo(0x101 = JLINKARM_DEBUG_INFO_ETM_ADDR_INDEX) -- Value=0x00000000  returns 0x00 (0000ms, 0211ms total)
T5208 000:212 JLINK_ReadMemEx(0xE0041FF0, 0x0010 Bytes, ..., Flags = 0x02000004) -- CPU_ReadMem(16 bytes @ 0xE0041FF0) - Data: 00 00 00 00 00 00 00 00 00 00 00 00 00 00 00 00  returns 0x10 (0001ms, 0212ms total)
T5208 000:213 JLINK_GetDebugInfo(0x102 = JLINKARM_DEBUG_INFO_MTB_ADDR_INDEX) -- Value=0x00000000  returns 0x00 (0000ms, 0212ms total)
T5208 000:213 JLINK_GetDebugInfo(0x103 = JLINKARM_DEBUG_INFO_TPIU_ADDR_INDEX) -- Value=0x00000000  returns 0x00 (0000ms, 0212ms total)
T5208 000:213 JLINK_ReadMemEx(0xE0040FF0, 0x0010 Bytes, ..., Flags = 0x02000004) -- CPU_ReadMem(16 bytes @ 0xE0040FF0) - Data: 00 00 00 00 00 00 00 00 00 00 00 00 00 00 00 00  returns 0x10 (0001ms, 0213ms total)
T5208 000:214 JLINK_GetDebugInfo(0x104 = JLINKARM_DEBUG_INFO_ITM_ADDR_INDEX) -- Value=0xE0000000  returns 0x00 (0000ms, 0213ms total)
T5208 000:214 JLINK_GetDebugInfo(0x105 = JLINKARM_DEBUG_INFO_DWT_ADDR_INDEX) -- Value=0xE0001000  returns 0x00 (0000ms, 0213ms total)
T5208 000:214 JLINK_GetDebugInfo(0x106 = JLINKARM_DEBUG_INFO_FPB_ADDR_INDEX) -- Value=0xE0002000  returns 0x00 (0000ms, 0213ms total)
T5208 000:214 JLINK_GetDebugInfo(0x107 = JLINKARM_DEBUG_INFO_NVIC_ADDR_INDEX) -- Value=0xE000E000  returns 0x00 (0000ms, 0213ms total)
T5208 000:214 JLINK_GetDebugInfo(0x10C = JLINKARM_DEBUG_INFO_DBG_ADDR_INDEX) -- Value=0xE000EDF0  returns 0x00 (0000ms, 0213ms total)
T5208 000:214 JLINK_ReadMemU32(0xE000ED00, 0x0001 Items, ...) -- CPU_ReadMem(4 bytes @ 0xE000ED00) - Data: 00 C2 0C 41  returns 0x01 (0000ms, 0213ms total)
T5208 000:214 JLINK_GetDebugInfo(0x10F = JLINKARM_DEBUG_INFO_HAS_CORTEX_M_SECURITY_EXT_INDEX) -- Value=0x00000000  returns 0x00 (0000ms, 0213ms total)
T5208 000:214 JLINK_SetResetType(JLINKARM_CM3_RESET_TYPE_NORMAL)  returns JLINKARM_CM3_RESET_TYPE_NORMAL (0000ms, 0213ms total)
T5208 000:214 JLINK_Reset() -- CPU is running -- CPU_WriteMem(4 bytes @ 0xE000EDF0) -- CPU is running -- CPU_WriteMem(4 bytes @ 0xE000EDFC) >0x35 TIF>Setting AIRCR.SYSRESETREQ -- CPU is running -- CPU_WriteMem(4 bytes @ 0xE000ED0C) >0x0D TIF> >0x28 TIF> -- CPU_ReadMem(4 bytes @ 0xE000ED0C) -- CPU_ReadMem(4 bytes @ 0xE000EDF0) -- CPU_ReadMem(4 bytes @ 0xE000EDF0) -- CPU_ReadMem(4 bytes @ 0xE000EDF0) -- CPU is running -- CPU_WriteMem(4 bytes @ 0xE000EDF0) -- CPU is running
 -- CPU_WriteMem(4 bytes @ 0xE000EDFC) -- CPU_ReadMem(4 bytes @ 0xE000EDF0) -- CPU_WriteMem(4 bytes @ 0xE0002000) -- CPU_ReadMem(4 bytes @ 0xE000EDFC) -- CPU_ReadMem(4 bytes @ 0xE0001000) -- CPU_WriteMem(4 bytes @ 0xE0001000) (0071ms, 0284ms total)
T5208 000:285 JLINK_ReadReg(R15 (PC))  returns 0x000000F4 (0000ms, 0284ms total)
T5208 000:285 JLINK_ReadReg(XPSR)  returns 0xC1000000 (0000ms, 0284ms total)
T5208 000:285 JLINK_Halt()  returns 0x00 (0000ms, 0284ms total)
T5208 000:285 JLINK_ReadMemU32(0xE000EDF0, 0x0001 Items, ...) -- CPU_ReadMem(4 bytes @ 0xE000EDF0) - Data: 03 00 03 00  returns 0x01 (0000ms, 0284ms total)
T5208 000:285 JLINK_WriteU32(0xE000EDF0, 0xA05F0003) -- CPU_WriteMem(4 bytes @ 0xE000EDF0)  returns 0x00 (0001ms, 0285ms total)
T5208 000:286 JLINK_WriteU32(0xE000EDFC, 0x01000000) -- CPU_WriteMem(4 bytes @ 0xE000EDFC)  returns 0x00 (0001ms, 0286ms total)
T5208 000:287 JLINK_GetHWStatus(...)  returns 0x00 (0000ms, 0286ms total)
T5208 000:287 JLINK_GetNumBPUnits(Type = 0xFFFFFF00)  returns 0x04 (0000ms, 0286ms total)
T5208 000:287 JLINK_GetNumBPUnits(Type = 0xF0)  returns 0x2000 (0000ms, 0286ms total)
T5208 000:287 JLINK_GetNumWPUnits()  returns 0x02 (0000ms, 0286ms total)
T5208 000:287 JLINK_GetSpeed()  returns 0xFA0 (0000ms, 0286ms total)
T5208 000:287 JLINK_ReadMemU32(0xE000E004, 0x0001 Items, ...) -- CPU_ReadMem(4 bytes @ 0xE000E004) - Data: 00 00 00 00  returns 0x01 (0001ms, 0287ms total)
T5208 000:288 JLINK_ReadReg(R15 (PC))  returns 0x000000F4 (0000ms, 0287ms total)
T5208 000:288 JLINK_ReadReg(XPSR)  returns 0xC1000000 (0000ms, 0287ms total)
T5208 000:371 JLINK_SetResetType(JLINKARM_CM3_RESET_TYPE_NORMAL)  returns JLINKARM_CM3_RESET_TYPE_NORMAL (0000ms, 0287ms total)
T5208 000:371 JLINK_Reset() -- CPU_WriteMem(4 bytes @ 0xE000EDF0) -- CPU_WriteMem(4 bytes @ 0xE000EDFC) >0x35 TIF>Setting AIRCR.SYSRESETREQ -- CPU_WriteMem(4 bytes @ 0xE000ED0C) >0x0D TIF> >0x28 TIF> -- CPU_ReadMem(4 bytes @ 0xE000ED0C) -- CPU_ReadMem(4 bytes @ 0xE000EDF0) -- CPU_ReadMem(4 bytes @ 0xE000EDF0) -- CPU_ReadMem(4 bytes @ 0xE000EDF0) -- CPU_WriteMem(4 bytes @ 0xE000EDF0) -- CPU_WriteMem(4 bytes @ 0xE000EDFC) -- CPU_ReadMem(4 bytes @ 0xE000EDF0) -- CPU_WriteMem(4 bytes @ 0xE0002000)
 -- CPU_ReadMem(4 bytes @ 0xE000EDFC) -- CPU_ReadMem(4 bytes @ 0xE0001000) -- CPU_WriteMem(4 bytes @ 0xE0001000) (0071ms, 0358ms total)
T5208 000:442 JLINK_ReadReg(R15 (PC))  returns 0x000000F4 (0000ms, 0358ms total)
T5208 000:442 JLINK_ReadReg(XPSR)  returns 0xC1000000 (0000ms, 0358ms total)
T5208 000:443 JLINK_ReadMemEx(0x000000C0, 0x003C Bytes, ..., Flags = 0x02000000) -- CPU_ReadMem(64 bytes @ 0x000000C0) -- Updating C cache (64 bytes @ 0x000000C0) -- Read from C cache (60 bytes @ 0x000000C0) - Data: 03 48 85 46 00 F0 32 F8 00 48 00 47 81 06 00 00 ...  returns 0x3C (0001ms, 0359ms total)
T5208 000:444 JLINK_ReadMemEx(0x000000FC, 0x003C Bytes, ..., Flags = 0x02000000) -- CPU_ReadMem(64 bytes @ 0x00000100) -- Updating C cache (64 bytes @ 0x00000100) -- Read from C cache (60 bytes @ 0x000000FC) - Data: 02 60 08 48 02 68 0A 43 02 60 07 48 80 47 07 48 ...  returns 0x3C (0001ms, 0360ms total)
T5208 000:696 JLINK_ReadMemEx(0x40008000, 0x0010 Bytes, ..., Flags = 0x02000004) -- CPU_ReadMem(16 bytes @ 0x40008000) - Data: 00 00 00 00 00 00 00 00 00 00 00 00 00 00 00 00  returns 0x10 (0001ms, 0361ms total)
T5208 000:697 JLINK_ReadMemEx(0x40008000, 0x0004 Bytes, ..., Flags = 0x02000004) -- CPU_ReadMem(4 bytes @ 0x40008000) - Data: 00 00 00 00  returns 0x04 (0001ms, 0362ms total)
T5208 000:698 JLINK_ReadMemEx(0x40008004, 0x0004 Bytes, ..., Flags = 0x02000004) -- CPU_ReadMem(4 bytes @ 0x40008004) - Data: 00 00 00 00  returns 0x04 (0000ms, 0362ms total)
T5208 000:698 JLINK_ReadMemEx(0x40008008, 0x0004 Bytes, ..., Flags = 0x02000004) -- CPU_ReadMem(4 bytes @ 0x40008008) - Data: 00 00 00 00  returns 0x04 (0001ms, 0363ms total)
T5208 000:699 JLINK_ReadMemEx(0x4000800C, 0x0004 Bytes, ..., Flags = 0x02000004) -- CPU_ReadMem(4 bytes @ 0x4000800C) - Data: 00 00 00 00  returns 0x04 (0000ms, 0363ms total)
T5208 000:699 JLINK_ReadMemEx(0x40008010, 0x0004 Bytes, ..., Flags = 0x02000004) -- CPU_ReadMem(4 bytes @ 0x40008010) - Data: 00 00 00 00  returns 0x04 (0001ms, 0364ms total)
T5208 000:700 JLINK_ReadMemEx(0x40008010, 0x0004 Bytes, ..., Flags = 0x02000004) -- CPU_ReadMem(4 bytes @ 0x40008010) - Data: 00 00 00 00  returns 0x04 (0001ms, 0365ms total)
T5208 000:701 JLINK_ReadMemEx(0x40008040, 0x000C Bytes, ..., Flags = 0x02000004) -- CPU_ReadMem(12 bytes @ 0x40008040) - Data: 00 00 00 00 00 00 00 00 00 00 00 00  returns 0x0C (0000ms, 0365ms total)
T5208 000:701 JLINK_ReadMemEx(0x40008040, 0x0004 Bytes, ..., Flags = 0x02000004) -- CPU_ReadMem(4 bytes @ 0x40008040) - Data: 00 00 00 00  returns 0x04 (0001ms, 0366ms total)
T5208 000:702 JLINK_ReadMemEx(0x40008044, 0x0004 Bytes, ..., Flags = 0x02000004) -- CPU_ReadMem(4 bytes @ 0x40008044) - Data: 00 00 00 00  returns 0x04 (0001ms, 0367ms total)
T5208 000:703 JLINK_ReadMemEx(0x40008048, 0x0004 Bytes, ..., Flags = 0x02000004) -- CPU_ReadMem(4 bytes @ 0x40008048) - Data: 00 00 00 00  returns 0x04 (0000ms, 0367ms total)
T5208 000:703 JLINK_ReadMemEx(0x4000804C, 0x0004 Bytes, ..., Flags = 0x02000004) -- CPU_ReadMem(4 bytes @ 0x4000804C) - Data: 00 00 00 00  returns 0x04 (0001ms, 0368ms total)
T5208 000:704 JLINK_ReadMemEx(0x4000804C, 0x0004 Bytes, ..., Flags = 0x02000004) -- CPU_ReadMem(4 bytes @ 0x4000804C) - Data: 00 00 00 00  returns 0x04 (0000ms, 0368ms total)
T5208 000:704 JLINK_ReadMemEx(0x40008140, 0x000C Bytes, ..., Flags = 0x02000004) -- CPU_ReadMem(12 bytes @ 0x40008140) - Data: 00 00 00 00 00 00 00 00 00 00 00 00  returns 0x0C (0001ms, 0369ms total)
T5208 000:705 JLINK_ReadMemEx(0x40008140, 0x0004 Bytes, ..., Flags = 0x02000004) -- CPU_ReadMem(4 bytes @ 0x40008140) - Data: 00 00 00 00  returns 0x04 (0001ms, 0370ms total)
T5208 000:706 JLINK_ReadMemEx(0x40008144, 0x0004 Bytes, ..., Flags = 0x02000004) -- CPU_ReadMem(4 bytes @ 0x40008144) - Data: 00 00 00 00  returns 0x04 (0000ms, 0370ms total)
T5208 000:706 JLINK_ReadMemEx(0x40008148, 0x0004 Bytes, ..., Flags = 0x02000004) -- CPU_ReadMem(4 bytes @ 0x40008148) - Data: 00 00 00 00  returns 0x04 (0001ms, 0371ms total)
T5208 000:707 JLINK_ReadMemEx(0x4000814C, 0x0004 Bytes, ..., Flags = 0x02000004) -- CPU_ReadMem(4 bytes @ 0x4000814C) - Data: 00 00 00 00  returns 0x04 (0000ms, 0371ms total)
T5208 000:708 JLINK_ReadMemEx(0x4000814C, 0x0004 Bytes, ..., Flags = 0x02000004) -- CPU_ReadMem(4 bytes @ 0x4000814C) - Data: 00 00 00 00  returns 0x04 (0000ms, 0371ms total)
T5208 000:708 JLINK_ReadMemEx(0x40008200, 0x0004 Bytes, ..., Flags = 0x02000004) -- CPU_ReadMem(4 bytes @ 0x40008200) - Data: 00 00 00 00  returns 0x04 (0001ms, 0372ms total)
T5208 000:709 JLINK_ReadMemEx(0x40008200, 0x0004 Bytes, ..., Flags = 0x02000004) -- CPU_ReadMem(4 bytes @ 0x40008200) - Data: 00 00 00 00  returns 0x04 (0000ms, 0372ms total)
T5208 000:709 JLINK_ReadMemEx(0x40008304, 0x0004 Bytes, ..., Flags = 0x02000004) -- CPU_ReadMem(4 bytes @ 0x40008304) - Data: 00 00 00 00  returns 0x04 (0001ms, 0373ms total)
T5208 000:710 JLINK_ReadMemEx(0x40008304, 0x0004 Bytes, ..., Flags = 0x02000004) -- CPU_ReadMem(4 bytes @ 0x40008304) - Data: 00 00 00 00  returns 0x04 (0001ms, 0374ms total)
T5208 000:711 JLINK_ReadMemEx(0x40008308, 0x0004 Bytes, ..., Flags = 0x02000004) -- CPU_ReadMem(4 bytes @ 0x40008308) - Data: 00 00 00 00  returns 0x04 (0000ms, 0374ms total)
T5208 000:711 JLINK_ReadMemEx(0x40008308, 0x0004 Bytes, ..., Flags = 0x02000004) -- CPU_ReadMem(4 bytes @ 0x40008308) - Data: 00 00 00 00  returns 0x04 (0001ms, 0375ms total)
T5208 000:712 JLINK_ReadMemEx(0x40008504, 0x0004 Bytes, ..., Flags = 0x02000004) -- CPU_ReadMem(4 bytes @ 0x40008504) - Data: 00 00 00 00  returns 0x04 (0000ms, 0375ms total)
T5208 000:712 JLINK_ReadMemEx(0x40008504, 0x0004 Bytes, ..., Flags = 0x02000004) -- CPU_ReadMem(4 bytes @ 0x40008504) - Data: 00 00 00 00  returns 0x04 (0001ms, 0376ms total)
T5208 000:713 JLINK_ReadMemEx(0x40008508, 0x0004 Bytes, ..., Flags = 0x02000004) -- CPU_ReadMem(4 bytes @ 0x40008508) - Data: 00 00 00 00  returns 0x04 (0000ms, 0376ms total)
T5208 000:713 JLINK_ReadMemEx(0x40008508, 0x0004 Bytes, ..., Flags = 0x02000004) -- CPU_ReadMem(4 bytes @ 0x40008508) - Data: 00 00 00 00  returns 0x04 (0001ms, 0377ms total)
T5208 000:714 JLINK_ReadMemEx(0x40008510, 0x0004 Bytes, ..., Flags = 0x02000004) -- CPU_ReadMem(4 bytes @ 0x40008510) - Data: 04 00 00 00  returns 0x04 (0000ms, 0377ms total)
T5208 000:714 JLINK_ReadMemEx(0x40008510, 0x0004 Bytes, ..., Flags = 0x02000004) -- CPU_ReadMem(4 bytes @ 0x40008510) - Data: 04 00 00 00  returns 0x04 (0001ms, 0378ms total)
T5208 000:715 JLINK_ReadMemEx(0x40008540, 0x000C Bytes, ..., Flags = 0x02000004) -- CPU_ReadMem(12 bytes @ 0x40008540) - Data: 00 00 00 00 00 00 00 00 00 00 00 00  returns 0x0C (0000ms, 0378ms total)
T5208 000:715 JLINK_ReadMemEx(0x40008540, 0x0004 Bytes, ..., Flags = 0x02000004) -- CPU_ReadMem(4 bytes @ 0x40008540) - Data: 00 00 00 00  returns 0x04 (0001ms, 0379ms total)
T5208 000:716 JLINK_ReadMemEx(0x40008544, 0x0004 Bytes, ..., Flags = 0x02000004) -- CPU_ReadMem(4 bytes @ 0x40008544) - Data: 00 00 00 00  returns 0x04 (0000ms, 0379ms total)
T5208 000:716 JLINK_ReadMemEx(0x40008548, 0x0004 Bytes, ..., Flags = 0x02000004) -- CPU_ReadMem(4 bytes @ 0x40008548) - Data: 00 00 00 00  returns 0x04 (0001ms, 0380ms total)
T5208 000:717 JLINK_ReadMemEx(0x4000854C, 0x0004 Bytes, ..., Flags = 0x02000004) -- CPU_ReadMem(4 bytes @ 0x4000854C) - Data: 00 00 00 00  returns 0x04 (0000ms, 0380ms total)
T5208 000:717 JLINK_ReadMemEx(0x4000854C, 0x0004 Bytes, ..., Flags = 0x02000004) -- CPU_ReadMem(4 bytes @ 0x4000854C) - Data: 00 00 00 00  returns 0x04 (0001ms, 0381ms total)
T5208 000:718 JLINK_ReadMemEx(0x40008FFC, 0x0004 Bytes, ..., Flags = 0x02000004) -- CPU_ReadMem(4 bytes @ 0x40008FFC) - Data: 01 00 00 00  returns 0x04 (0000ms, 0381ms total)
T5208 000:718 JLINK_ReadMemEx(0x40008FFC, 0x0004 Bytes, ..., Flags = 0x02000004) -- CPU_ReadMem(4 bytes @ 0x40008FFC) - Data: 01 00 00 00  returns 0x04 (0001ms, 0382ms total)
T5208 000:810 JLINK_ReadMemEx(0x40009000, 0x0010 Bytes, ..., Flags = 0x02000004) -- CPU_ReadMem(16 bytes @ 0x40009000) - Data: 00 00 00 00 00 00 00 00 00 00 00 00 00 00 00 00  returns 0x10 (0001ms, 0383ms total)
T5208 000:811 JLINK_ReadMemEx(0x40009000, 0x0004 Bytes, ..., Flags = 0x02000004) -- CPU_ReadMem(4 bytes @ 0x40009000) - Data: 00 00 00 00  returns 0x04 (0000ms, 0383ms total)
T5208 000:811 JLINK_ReadMemEx(0x40009004, 0x0004 Bytes, ..., Flags = 0x02000004) -- CPU_ReadMem(4 bytes @ 0x40009004) - Data: 00 00 00 00  returns 0x04 (0001ms, 0384ms total)
T5208 000:812 JLINK_ReadMemEx(0x40009008, 0x0004 Bytes, ..., Flags = 0x02000004) -- CPU_ReadMem(4 bytes @ 0x40009008) - Data: 00 00 00 00  returns 0x04 (0001ms, 0385ms total)
T5208 000:813 JLINK_ReadMemEx(0x4000900C, 0x0004 Bytes, ..., Flags = 0x02000004) -- CPU_ReadMem(4 bytes @ 0x4000900C) - Data: 00 00 00 00  returns 0x04 (0000ms, 0385ms total)
T5208 000:813 JLINK_ReadMemEx(0x40009010, 0x0004 Bytes, ..., Flags = 0x02000004) -- CPU_ReadMem(4 bytes @ 0x40009010) - Data: 00 00 00 00  returns 0x04 (0001ms, 0386ms total)
T5208 000:814 JLINK_ReadMemEx(0x40009010, 0x0004 Bytes, ..., Flags = 0x02000004) -- CPU_ReadMem(4 bytes @ 0x40009010) - Data: 00 00 00 00  returns 0x04 (0000ms, 0386ms total)
T5208 000:814 JLINK_ReadMemEx(0x40009040, 0x000C Bytes, ..., Flags = 0x02000004) -- CPU_ReadMem(12 bytes @ 0x40009040) - Data: 00 00 00 00 00 00 00 00 00 00 00 00  returns 0x0C (0001ms, 0387ms total)
T5208 000:815 JLINK_ReadMemEx(0x40009040, 0x0004 Bytes, ..., Flags = 0x02000004) -- CPU_ReadMem(4 bytes @ 0x40009040) - Data: 00 00 00 00  returns 0x04 (0000ms, 0387ms total)
T5208 000:815 JLINK_ReadMemEx(0x40009044, 0x0004 Bytes, ..., Flags = 0x02000004) -- CPU_ReadMem(4 bytes @ 0x40009044) - Data: 00 00 00 00  returns 0x04 (0000ms, 0387ms total)
T5208 000:816 JLINK_ReadMemEx(0x40009048, 0x0004 Bytes, ..., Flags = 0x02000004) -- CPU_ReadMem(4 bytes @ 0x40009048) - Data: 00 00 00 00  returns 0x04 (0000ms, 0388ms total)
T5208 000:816 JLINK_ReadMemEx(0x4000904C, 0x0004 Bytes, ..., Flags = 0x02000004) -- CPU_ReadMem(4 bytes @ 0x4000904C) - Data: 00 00 00 00  returns 0x04 (0001ms, 0389ms total)
T5208 000:817 JLINK_ReadMemEx(0x4000904C, 0x0004 Bytes, ..., Flags = 0x02000004) -- CPU_ReadMem(4 bytes @ 0x4000904C) - Data: 00 00 00 00  returns 0x04 (0000ms, 0389ms total)
T5208 000:817 JLINK_ReadMemEx(0x40009140, 0x000C Bytes, ..., Flags = 0x02000004) -- CPU_ReadMem(12 bytes @ 0x40009140) - Data: 00 00 00 00 00 00 00 00 00 00 00 00  returns 0x0C (0001ms, 0390ms total)
T5208 000:818 JLINK_ReadMemEx(0x40009140, 0x0004 Bytes, ..., Flags = 0x02000004) -- CPU_ReadMem(4 bytes @ 0x40009140) - Data: 00 00 00 00  returns 0x04 (0000ms, 0390ms total)
T5208 000:818 JLINK_ReadMemEx(0x40009144, 0x0004 Bytes, ..., Flags = 0x02000004) -- CPU_ReadMem(4 bytes @ 0x40009144) - Data: 00 00 00 00  returns 0x04 (0001ms, 0391ms total)
T5208 000:819 JLINK_ReadMemEx(0x40009148, 0x0004 Bytes, ..., Flags = 0x02000004) -- CPU_ReadMem(4 bytes @ 0x40009148) - Data: 00 00 00 00  returns 0x04 (0000ms, 0391ms total)
T5208 000:819 JLINK_ReadMemEx(0x4000914C, 0x0004 Bytes, ..., Flags = 0x02000004) -- CPU_ReadMem(4 bytes @ 0x4000914C) - Data: 00 00 00 00  returns 0x04 (0001ms, 0392ms total)
T5208 000:820 JLINK_ReadMemEx(0x4000914C, 0x0004 Bytes, ..., Flags = 0x02000004) -- CPU_ReadMem(4 bytes @ 0x4000914C) - Data: 00 00 00 00  returns 0x04 (0000ms, 0392ms total)
T5208 000:820 JLINK_ReadMemEx(0x40009200, 0x0004 Bytes, ..., Flags = 0x02000004) -- CPU_ReadMem(4 bytes @ 0x40009200) - Data: 00 00 00 00  returns 0x04 (0001ms, 0393ms total)
T5208 000:821 JLINK_ReadMemEx(0x40009200, 0x0004 Bytes, ..., Flags = 0x02000004) -- CPU_ReadMem(4 bytes @ 0x40009200) - Data: 00 00 00 00  returns 0x04 (0000ms, 0393ms total)
T5208 000:821 JLINK_ReadMemEx(0x40009304, 0x0004 Bytes, ..., Flags = 0x02000004) -- CPU_ReadMem(4 bytes @ 0x40009304) - Data: 00 00 00 00  returns 0x04 (0001ms, 0394ms total)
T5208 000:822 JLINK_ReadMemEx(0x40009304, 0x0004 Bytes, ..., Flags = 0x02000004) -- CPU_ReadMem(4 bytes @ 0x40009304) - Data: 00 00 00 00  returns 0x04 (0000ms, 0394ms total)
T5208 000:822 JLINK_ReadMemEx(0x40009308, 0x0004 Bytes, ..., Flags = 0x02000004) -- CPU_ReadMem(4 bytes @ 0x40009308) - Data: 00 00 00 00  returns 0x04 (0001ms, 0395ms total)
T5208 000:823 JLINK_ReadMemEx(0x40009308, 0x0004 Bytes, ..., Flags = 0x02000004) -- CPU_ReadMem(4 bytes @ 0x40009308) - Data: 00 00 00 00  returns 0x04 (0000ms, 0395ms total)
T5208 000:823 JLINK_ReadMemEx(0x40009504, 0x0004 Bytes, ..., Flags = 0x02000004) -- CPU_ReadMem(4 bytes @ 0x40009504) - Data: 00 00 00 00  returns 0x04 (0001ms, 0396ms total)
T5208 000:824 JLINK_ReadMemEx(0x40009504, 0x0004 Bytes, ..., Flags = 0x02000004) -- CPU_ReadMem(4 bytes @ 0x40009504) - Data: 00 00 00 00  returns 0x04 (0001ms, 0397ms total)
T5208 000:825 JLINK_ReadMemEx(0x40009508, 0x0004 Bytes, ..., Flags = 0x02000004) -- CPU_ReadMem(4 bytes @ 0x40009508) - Data: 00 00 00 00  returns 0x04 (0000ms, 0397ms total)
T5208 000:825 JLINK_ReadMemEx(0x40009508, 0x0004 Bytes, ..., Flags = 0x02000004) -- CPU_ReadMem(4 bytes @ 0x40009508) - Data: 00 00 00 00  returns 0x04 (0001ms, 0398ms total)
T5208 000:826 JLINK_ReadMemEx(0x40009510, 0x0004 Bytes, ..., Flags = 0x02000004) -- CPU_ReadMem(4 bytes @ 0x40009510) - Data: 04 00 00 00  returns 0x04 (0001ms, 0399ms total)
T5208 000:827 JLINK_ReadMemEx(0x40009510, 0x0004 Bytes, ..., Flags = 0x02000004) -- CPU_ReadMem(4 bytes @ 0x40009510) - Data: 04 00 00 00  returns 0x04 (0000ms, 0399ms total)
T5208 000:827 JLINK_ReadMemEx(0x40009540, 0x000C Bytes, ..., Flags = 0x02000004) -- CPU_ReadMem(12 bytes @ 0x40009540) - Data: 00 00 00 00 00 00 00 00 00 00 00 00  returns 0x0C (0001ms, 0400ms total)
T5208 000:828 JLINK_ReadMemEx(0x40009540, 0x0004 Bytes, ..., Flags = 0x02000004) -- CPU_ReadMem(4 bytes @ 0x40009540) - Data: 00 00 00 00  returns 0x04 (0000ms, 0400ms total)
T5208 000:828 JLINK_ReadMemEx(0x40009544, 0x0004 Bytes, ..., Flags = 0x02000004) -- CPU_ReadMem(4 bytes @ 0x40009544) - Data: 00 00 00 00  returns 0x04 (0001ms, 0401ms total)
T5208 000:829 JLINK_ReadMemEx(0x40009548, 0x0004 Bytes, ..., Flags = 0x02000004) -- CPU_ReadMem(4 bytes @ 0x40009548) - Data: 00 00 00 00  returns 0x04 (0000ms, 0401ms total)
T5208 000:829 JLINK_ReadMemEx(0x4000954C, 0x0004 Bytes, ..., Flags = 0x02000004) -- CPU_ReadMem(4 bytes @ 0x4000954C) - Data: 00 00 00 00  returns 0x04 (0001ms, 0402ms total)
T5208 000:830 JLINK_ReadMemEx(0x4000954C, 0x0004 Bytes, ..., Flags = 0x02000004) -- CPU_ReadMem(4 bytes @ 0x4000954C) - Data: 00 00 00 00  returns 0x04 (0001ms, 0403ms total)
T5208 000:831 JLINK_ReadMemEx(0x40009FFC, 0x0004 Bytes, ..., Flags = 0x02000004) -- CPU_ReadMem(4 bytes @ 0x40009FFC) - Data: 01 00 00 00  returns 0x04 (0000ms, 0403ms total)
T5208 000:831 JLINK_ReadMemEx(0x40009FFC, 0x0004 Bytes, ..., Flags = 0x02000004) -- CPU_ReadMem(4 bytes @ 0x40009FFC) - Data: 01 00 00 00  returns 0x04 (0001ms, 0404ms total)
T5208 004:410 JLINK_ReadReg(R0)  returns 0xFFFFFFFF (0000ms, 0404ms total)
T5208 004:411 JLINK_ReadReg(R1)  returns 0xFFFFFFFF (0000ms, 0404ms total)
T5208 004:411 JLINK_ReadReg(R2)  returns 0xFFFFFFFF (0000ms, 0404ms total)
T5208 004:411 JLINK_ReadReg(R3)  returns 0xFFFFFFFF (0000ms, 0404ms total)
T5208 004:411 JLINK_ReadReg(R4)  returns 0xFFFFFFFF (0000ms, 0404ms total)
T5208 004:411 JLINK_ReadReg(R5)  returns 0xFFFFFFFF (0000ms, 0404ms total)
T5208 004:411 JLINK_ReadReg(R6)  returns 0xFFFFFFFF (0000ms, 0404ms total)
T5208 004:411 JLINK_ReadReg(R7)  returns 0xFFFFFFFF (0000ms, 0404ms total)
T5208 004:411 JLINK_ReadReg(R8)  returns 0xFFFFFFFF (0000ms, 0404ms total)
T5208 004:411 JLINK_ReadReg(R9)  returns 0xFFFFFFFF (0000ms, 0404ms total)
T5208 004:411 JLINK_ReadReg(R10)  returns 0xFFFFFFFF (0000ms, 0404ms total)
T5208 004:411 JLINK_ReadReg(R11)  returns 0xFFFFFFFF (0000ms, 0404ms total)
T5208 004:411 JLINK_ReadReg(R12)  returns 0xFFFFFFFF (0000ms, 0404ms total)
T5208 004:411 JLINK_ReadReg(R13 (SP))  returns 0x20000880 (0000ms, 0404ms total)
T5208 004:411 JLINK_ReadReg(R14)  returns 0xFFFFFFFF (0000ms, 0404ms total)
T5208 004:411 JLINK_ReadReg(R15 (PC))  returns 0x000000F4 (0000ms, 0404ms total)
T5208 004:411 JLINK_ReadReg(XPSR)  returns 0xC1000000 (0000ms, 0404ms total)
T5208 004:411 JLINK_ReadReg(MSP)  returns 0x20000880 (0000ms, 0404ms total)
T5208 004:411 JLINK_ReadReg(PSP)  returns 0xFFFFFFFC (0000ms, 0404ms total)
T5208 004:411 JLINK_ReadReg(CFBP)  returns 0x00000000 (0000ms, 0404ms total)
T5208 004:425 JLINK_ReadMemEx(0x20000020, 0x0004 Bytes, ..., Flags = 0x02000000) -- CPU_ReadMem(64 bytes @ 0x20000000) -- Updating C cache (64 bytes @ 0x20000000) -- Read from C cache (4 bytes @ 0x20000020) - Data: 40 BA 70 47  returns 0x04 (0001ms, 0405ms total)
T5208 004:432 JLINK_ReadMemEx(0x20000024, 0x0004 Bytes, ..., Flags = 0x02000000) -- Read from C cache (4 bytes @ 0x20000024) - Data: C0 BA 70 47  returns 0x04 (0000ms, 0405ms total)
T8190 004:498 JLINK_ReadMemEx(0x000000F4, 0x0002 Bytes, ..., Flags = 0x02000000) -- Read from C cache (2 bytes @ 0x000000F4) - Data: 03 21  returns 0x02 (0000ms, 0405ms total)
T8190 004:498 JLINK_SetBPEx(Addr = 0x00000680, Type = 0xFFFFFFF2)  returns 0x00000001 (0000ms, 0405ms total)
T8190 004:498 JLINK_Go() -- CPU_WriteMem(4 bytes @ 0xE0002000) -- CPU_ReadMem(4 bytes @ 0xE0001000) -- CPU_WriteMem(4 bytes @ 0xE0001000) -- CPU_WriteMem(4 bytes @ 0xE0002008) -- CPU_WriteMem(4 bytes @ 0xE000200C) -- CPU_WriteMem(4 bytes @ 0xE0002010) -- CPU_WriteMem(4 bytes @ 0xE0002014) -- CPU_WriteMem(4 bytes @ 0xE0001004) (0004ms, 0409ms total)
T8190 004:602 JLINK_IsHalted()  returns TRUE (0002ms, 0411ms total)
T8190 004:604 JLINK_Halt()  returns 0x00 (0000ms, 0409ms total)
T8190 004:604 JLINK_IsHalted()  returns TRUE (0000ms, 0409ms total)
T8190 004:604 JLINK_IsHalted()  returns TRUE (0000ms, 0409ms total)
T8190 004:604 JLINK_IsHalted()  returns TRUE (0000ms, 0409ms total)
T8190 004:604 JLINK_ReadReg(R15 (PC))  returns 0x00000680 (0000ms, 0409ms total)
T8190 004:604 JLINK_ReadReg(XPSR)  returns 0x61000000 (0000ms, 0409ms total)
T8190 004:604 JLINK_ClrBPEx(BPHandle = 0x00000001)  returns 0x00 (0000ms, 0409ms total)
T8190 004:604 JLINK_ReadMemU32(0xE000ED30, 0x0001 Items, ...) -- CPU_ReadMem(4 bytes @ 0xE000ED30) - Data: 02 00 00 00  returns 0x01 (0001ms, 0410ms total)
T8190 004:605 JLINK_ReadMemU32(0xE0001028, 0x0001 Items, ...) -- CPU_ReadMem(4 bytes @ 0xE0001028) - Data: 00 00 00 00  returns 0x01 (0001ms, 0411ms total)
T8190 004:606 JLINK_ReadMemU32(0xE0001038, 0x0001 Items, ...) -- CPU_ReadMem(4 bytes @ 0xE0001038) - Data: 00 00 00 00  returns 0x01 (0000ms, 0411ms total)
T8190 004:606 JLINK_ReadReg(R0)  returns 0x00000681 (0000ms, 0411ms total)
T8190 004:606 JLINK_ReadReg(R1)  returns 0x20000880 (0000ms, 0411ms total)
T8190 004:606 JLINK_ReadReg(R2)  returns 0x00000000 (0000ms, 0411ms total)
T8190 004:606 JLINK_ReadReg(R3)  returns 0x000003CD (0000ms, 0411ms total)
T8190 004:606 JLINK_ReadReg(R4)  returns 0x0000133C (0000ms, 0411ms total)
T8190 004:606 JLINK_ReadReg(R5)  returns 0x00000001 (0000ms, 0411ms total)
T8190 004:606 JLINK_ReadReg(R6)  returns 0x0000133C (0000ms, 0411ms total)
T8190 004:606 JLINK_ReadReg(R7)  returns 0xFFFFFFFF (0000ms, 0411ms total)
T8190 004:606 JLINK_ReadReg(R8)  returns 0xFFFFFFFF (0000ms, 0411ms total)
T8190 004:606 JLINK_ReadReg(R9)  returns 0xFFFFFFFF (0000ms, 0411ms total)
T8190 004:606 JLINK_ReadReg(R10)  returns 0xFFFFFFFF (0000ms, 0411ms total)
T8190 004:606 JLINK_ReadReg(R11)  returns 0xFFFFFFFF (0001ms, 0412ms total)
T8190 004:607 JLINK_ReadReg(R12)  returns 0xFFFFFFFF (0000ms, 0412ms total)
T8190 004:607 JLINK_ReadReg(R13 (SP))  returns 0x20000880 (0000ms, 0412ms total)
T8190 004:607 JLINK_ReadReg(R14)  returns 0x00000149 (0000ms, 0412ms total)
T8190 004:607 JLINK_ReadReg(R15 (PC))  returns 0x00000680 (0000ms, 0412ms total)
T8190 004:607 JLINK_ReadReg(XPSR)  returns 0x61000000 (0000ms, 0412ms total)
T8190 004:607 JLINK_ReadReg(MSP)  returns 0x20000880 (0000ms, 0412ms total)
T8190 004:607 JLINK_ReadReg(PSP)  returns 0xFFFFFFFC (0000ms, 0412ms total)
T8190 004:607 JLINK_ReadReg(CFBP)  returns 0x00000000 (0000ms, 0412ms total)
T5208 004:609 JLINK_ReadMemEx(0x00000000, 0x0004 Bytes, ..., Flags = 0x02000000) -- CPU_ReadMem(64 bytes @ 0x00000000) -- Updating C cache (64 bytes @ 0x00000000) -- Read from C cache (4 bytes @ 0x00000000) - Data: 80 08 00 20  returns 0x04 (0000ms, 0412ms total)
T5208 004:611 JLINK_ReadMemEx(0x20000020, 0x0004 Bytes, ..., Flags = 0x02000000) -- CPU_ReadMem(64 bytes @ 0x20000000) -- Updating C cache (64 bytes @ 0x20000000) -- Read from C cache (4 bytes @ 0x20000020) - Data: 00 00 00 00  returns 0x04 (0001ms, 0413ms total)
T5208 004:612 JLINK_ReadMemEx(0x20000024, 0x0004 Bytes, ..., Flags = 0x02000000) -- Read from C cache (4 bytes @ 0x20000024) - Data: 00 00 00 00  returns 0x04 (0000ms, 0413ms total)
T5208 004:621 JLINK_ReadMemEx(0x40009000, 0x0010 Bytes, ..., Flags = 0x02000004) -- CPU_ReadMem(16 bytes @ 0x40009000) - Data: 00 00 00 00 00 00 00 00 00 00 00 00 00 00 00 00  returns 0x10 (0001ms, 0414ms total)
T5208 004:622 JLINK_ReadMemEx(0x40009000, 0x0004 Bytes, ..., Flags = 0x02000004) -- CPU_ReadMem(4 bytes @ 0x40009000) - Data: 00 00 00 00  returns 0x04 (0000ms, 0414ms total)
T5208 004:622 JLINK_ReadMemEx(0x40009004, 0x0004 Bytes, ..., Flags = 0x02000004) -- CPU_ReadMem(4 bytes @ 0x40009004) - Data: 00 00 00 00  returns 0x04 (0001ms, 0415ms total)
T5208 004:623 JLINK_ReadMemEx(0x40009008, 0x0004 Bytes, ..., Flags = 0x02000004) -- CPU_ReadMem(4 bytes @ 0x40009008) - Data: 00 00 00 00  returns 0x04 (0000ms, 0415ms total)
T5208 004:623 JLINK_ReadMemEx(0x4000900C, 0x0004 Bytes, ..., Flags = 0x02000004) -- CPU_ReadMem(4 bytes @ 0x4000900C) - Data: 00 00 00 00  returns 0x04 (0001ms, 0416ms total)
T5208 004:624 JLINK_ReadMemEx(0x40009010, 0x0004 Bytes, ..., Flags = 0x02000004) -- CPU_ReadMem(4 bytes @ 0x40009010) - Data: 00 00 00 00  returns 0x04 (0000ms, 0416ms total)
T5208 004:624 JLINK_ReadMemEx(0x40009010, 0x0004 Bytes, ..., Flags = 0x02000004) -- CPU_ReadMem(4 bytes @ 0x40009010) - Data: 00 00 00 00  returns 0x04 (0001ms, 0417ms total)
T5208 004:625 JLINK_ReadMemEx(0x40009040, 0x000C Bytes, ..., Flags = 0x02000004) -- CPU_ReadMem(12 bytes @ 0x40009040) - Data: 00 00 00 00 00 00 00 00 00 00 00 00  returns 0x0C (0000ms, 0417ms total)
T5208 004:625 JLINK_ReadMemEx(0x40009040, 0x0004 Bytes, ..., Flags = 0x02000004) -- CPU_ReadMem(4 bytes @ 0x40009040) - Data: 00 00 00 00  returns 0x04 (0001ms, 0418ms total)
T5208 004:626 JLINK_ReadMemEx(0x40009044, 0x0004 Bytes, ..., Flags = 0x02000004) -- CPU_ReadMem(4 bytes @ 0x40009044) - Data: 00 00 00 00  returns 0x04 (0000ms, 0418ms total)
T5208 004:626 JLINK_ReadMemEx(0x40009048, 0x0004 Bytes, ..., Flags = 0x02000004) -- CPU_ReadMem(4 bytes @ 0x40009048) - Data: 00 00 00 00  returns 0x04 (0001ms, 0419ms total)
T5208 004:627 JLINK_ReadMemEx(0x4000904C, 0x0004 Bytes, ..., Flags = 0x02000004) -- CPU_ReadMem(4 bytes @ 0x4000904C) - Data: 00 00 00 00  returns 0x04 (0000ms, 0419ms total)
T5208 004:627 JLINK_ReadMemEx(0x4000904C, 0x0004 Bytes, ..., Flags = 0x02000004) -- CPU_ReadMem(4 bytes @ 0x4000904C) - Data: 00 00 00 00  returns 0x04 (0001ms, 0420ms total)
T5208 004:628 JLINK_ReadMemEx(0x40009140, 0x000C Bytes, ..., Flags = 0x02000004) -- CPU_ReadMem(12 bytes @ 0x40009140) - Data: 00 00 00 00 00 00 00 00 00 00 00 00  returns 0x0C (0001ms, 0421ms total)
T5208 004:629 JLINK_ReadMemEx(0x40009140, 0x0004 Bytes, ..., Flags = 0x02000004) -- CPU_ReadMem(4 bytes @ 0x40009140) - Data: 00 00 00 00  returns 0x04 (0000ms, 0421ms total)
T5208 004:629 JLINK_ReadMemEx(0x40009144, 0x0004 Bytes, ..., Flags = 0x02000004) -- CPU_ReadMem(4 bytes @ 0x40009144) - Data: 00 00 00 00  returns 0x04 (0001ms, 0422ms total)
T5208 004:630 JLINK_ReadMemEx(0x40009148, 0x0004 Bytes, ..., Flags = 0x02000004) -- CPU_ReadMem(4 bytes @ 0x40009148) - Data: 00 00 00 00  returns 0x04 (0001ms, 0423ms total)
T5208 004:631 JLINK_ReadMemEx(0x4000914C, 0x0004 Bytes, ..., Flags = 0x02000004) -- CPU_ReadMem(4 bytes @ 0x4000914C) - Data: 00 00 00 00  returns 0x04 (0000ms, 0423ms total)
T5208 004:631 JLINK_ReadMemEx(0x4000914C, 0x0004 Bytes, ..., Flags = 0x02000004) -- CPU_ReadMem(4 bytes @ 0x4000914C) - Data: 00 00 00 00  returns 0x04 (0001ms, 0424ms total)
T5208 004:632 JLINK_ReadMemEx(0x40009200, 0x0004 Bytes, ..., Flags = 0x02000004) -- CPU_ReadMem(4 bytes @ 0x40009200) - Data: 00 00 00 00  returns 0x04 (0000ms, 0424ms total)
T5208 004:632 JLINK_ReadMemEx(0x40009200, 0x0004 Bytes, ..., Flags = 0x02000004) -- CPU_ReadMem(4 bytes @ 0x40009200) - Data: 00 00 00 00  returns 0x04 (0001ms, 0425ms total)
T5208 004:633 JLINK_ReadMemEx(0x40009304, 0x0004 Bytes, ..., Flags = 0x02000004) -- CPU_ReadMem(4 bytes @ 0x40009304) - Data: 00 00 00 00  returns 0x04 (0000ms, 0425ms total)
T5208 004:633 JLINK_ReadMemEx(0x40009304, 0x0004 Bytes, ..., Flags = 0x02000004) -- CPU_ReadMem(4 bytes @ 0x40009304) - Data: 00 00 00 00  returns 0x04 (0001ms, 0426ms total)
T5208 004:634 JLINK_ReadMemEx(0x40009308, 0x0004 Bytes, ..., Flags = 0x02000004) -- CPU_ReadMem(4 bytes @ 0x40009308) - Data: 00 00 00 00  returns 0x04 (0001ms, 0427ms total)
T5208 004:635 JLINK_ReadMemEx(0x40009308, 0x0004 Bytes, ..., Flags = 0x02000004) -- CPU_ReadMem(4 bytes @ 0x40009308) - Data: 00 00 00 00  returns 0x04 (0000ms, 0427ms total)
T5208 004:635 JLINK_ReadMemEx(0x40009504, 0x0004 Bytes, ..., Flags = 0x02000004) -- CPU_ReadMem(4 bytes @ 0x40009504) - Data: 00 00 00 00  returns 0x04 (0001ms, 0428ms total)
T5208 004:636 JLINK_ReadMemEx(0x40009504, 0x0004 Bytes, ..., Flags = 0x02000004) -- CPU_ReadMem(4 bytes @ 0x40009504) - Data: 00 00 00 00  returns 0x04 (0000ms, 0428ms total)
T5208 004:636 JLINK_ReadMemEx(0x40009508, 0x0004 Bytes, ..., Flags = 0x02000004) -- CPU_ReadMem(4 bytes @ 0x40009508) - Data: 00 00 00 00  returns 0x04 (0001ms, 0429ms total)
T5208 004:637 JLINK_ReadMemEx(0x40009508, 0x0004 Bytes, ..., Flags = 0x02000004) -- CPU_ReadMem(4 bytes @ 0x40009508) - Data: 00 00 00 00  returns 0x04 (0000ms, 0429ms total)
T5208 004:637 JLINK_ReadMemEx(0x40009510, 0x0004 Bytes, ..., Flags = 0x02000004) -- CPU_ReadMem(4 bytes @ 0x40009510) - Data: 04 00 00 00  returns 0x04 (0001ms, 0430ms total)
T5208 004:638 JLINK_ReadMemEx(0x40009510, 0x0004 Bytes, ..., Flags = 0x02000004) -- CPU_ReadMem(4 bytes @ 0x40009510) - Data: 04 00 00 00  returns 0x04 (0000ms, 0430ms total)
T5208 004:638 JLINK_ReadMemEx(0x40009540, 0x000C Bytes, ..., Flags = 0x02000004) -- CPU_ReadMem(12 bytes @ 0x40009540) - Data: 00 00 00 00 00 00 00 00 00 00 00 00  returns 0x0C (0001ms, 0431ms total)
T5208 004:639 JLINK_ReadMemEx(0x40009540, 0x0004 Bytes, ..., Flags = 0x02000004) -- CPU_ReadMem(4 bytes @ 0x40009540) - Data: 00 00 00 00  returns 0x04 (0000ms, 0431ms total)
T5208 004:639 JLINK_ReadMemEx(0x40009544, 0x0004 Bytes, ..., Flags = 0x02000004) -- CPU_ReadMem(4 bytes @ 0x40009544) - Data: 00 00 00 00  returns 0x04 (0001ms, 0432ms total)
T5208 004:640 JLINK_ReadMemEx(0x40009548, 0x0004 Bytes, ..., Flags = 0x02000004) -- CPU_ReadMem(4 bytes @ 0x40009548) - Data: 00 00 00 00  returns 0x04 (0000ms, 0432ms total)
T5208 004:640 JLINK_ReadMemEx(0x4000954C, 0x0004 Bytes, ..., Flags = 0x02000004) -- CPU_ReadMem(4 bytes @ 0x4000954C) - Data: 00 00 00 00  returns 0x04 (0001ms, 0433ms total)
T5208 004:641 JLINK_ReadMemEx(0x4000954C, 0x0004 Bytes, ..., Flags = 0x02000004) -- CPU_ReadMem(4 bytes @ 0x4000954C) - Data: 00 00 00 00  returns 0x04 (0000ms, 0433ms total)
T5208 004:641 JLINK_ReadMemEx(0x40009FFC, 0x0004 Bytes, ..., Flags = 0x02000004) -- CPU_ReadMem(4 bytes @ 0x40009FFC) - Data: 01 00 00 00  returns 0x04 (0001ms, 0434ms total)
T5208 004:642 JLINK_ReadMemEx(0x40009FFC, 0x0004 Bytes, ..., Flags = 0x02000004) -- CPU_ReadMem(4 bytes @ 0x40009FFC) - Data: 01 00 00 00  returns 0x04 (0000ms, 0434ms total)
T5208 004:643 JLINK_ReadMemEx(0x40008000, 0x0010 Bytes, ..., Flags = 0x02000004) -- CPU_ReadMem(16 bytes @ 0x40008000) - Data: 00 00 00 00 00 00 00 00 00 00 00 00 00 00 00 00  returns 0x10 (0000ms, 0434ms total)
T5208 004:643 JLINK_ReadMemEx(0x40008000, 0x0004 Bytes, ..., Flags = 0x02000004) -- CPU_ReadMem(4 bytes @ 0x40008000) - Data: 00 00 00 00  returns 0x04 (0001ms, 0435ms total)
T5208 004:644 JLINK_ReadMemEx(0x40008004, 0x0004 Bytes, ..., Flags = 0x02000004) -- CPU_ReadMem(4 bytes @ 0x40008004) - Data: 00 00 00 00  returns 0x04 (0000ms, 0435ms total)
T5208 004:644 JLINK_ReadMemEx(0x40008008, 0x0004 Bytes, ..., Flags = 0x02000004) -- CPU_ReadMem(4 bytes @ 0x40008008) - Data: 00 00 00 00  returns 0x04 (0001ms, 0436ms total)
T5208 004:645 JLINK_ReadMemEx(0x4000800C, 0x0004 Bytes, ..., Flags = 0x02000004) -- CPU_ReadMem(4 bytes @ 0x4000800C) - Data: 00 00 00 00  returns 0x04 (0000ms, 0436ms total)
T5208 004:645 JLINK_ReadMemEx(0x40008010, 0x0004 Bytes, ..., Flags = 0x02000004) -- CPU_ReadMem(4 bytes @ 0x40008010) - Data: 00 00 00 00  returns 0x04 (0001ms, 0437ms total)
T5208 004:646 JLINK_ReadMemEx(0x40008010, 0x0004 Bytes, ..., Flags = 0x02000004) -- CPU_ReadMem(4 bytes @ 0x40008010) - Data: 00 00 00 00  returns 0x04 (0000ms, 0437ms total)
T5208 004:646 JLINK_ReadMemEx(0x40008040, 0x000C Bytes, ..., Flags = 0x02000004) -- CPU_ReadMem(12 bytes @ 0x40008040) - Data: 00 00 00 00 00 00 00 00 00 00 00 00  returns 0x0C (0001ms, 0438ms total)
T5208 004:647 JLINK_ReadMemEx(0x40008040, 0x0004 Bytes, ..., Flags = 0x02000004) -- CPU_ReadMem(4 bytes @ 0x40008040) - Data: 00 00 00 00  returns 0x04 (0000ms, 0438ms total)
T5208 004:647 JLINK_ReadMemEx(0x40008044, 0x0004 Bytes, ..., Flags = 0x02000004) -- CPU_ReadMem(4 bytes @ 0x40008044) - Data: 00 00 00 00  returns 0x04 (0001ms, 0439ms total)
T5208 004:648 JLINK_ReadMemEx(0x40008048, 0x0004 Bytes, ..., Flags = 0x02000004) -- CPU_ReadMem(4 bytes @ 0x40008048) - Data: 00 00 00 00  returns 0x04 (0000ms, 0439ms total)
T5208 004:648 JLINK_ReadMemEx(0x4000804C, 0x0004 Bytes, ..., Flags = 0x02000004) -- CPU_ReadMem(4 bytes @ 0x4000804C) - Data: 00 00 00 00  returns 0x04 (0001ms, 0440ms total)
T5208 004:649 JLINK_ReadMemEx(0x4000804C, 0x0004 Bytes, ..., Flags = 0x02000004) -- CPU_ReadMem(4 bytes @ 0x4000804C) - Data: 00 00 00 00  returns 0x04 (0000ms, 0440ms total)
T5208 004:649 JLINK_ReadMemEx(0x40008140, 0x000C Bytes, ..., Flags = 0x02000004) -- CPU_ReadMem(12 bytes @ 0x40008140) - Data: 00 00 00 00 00 00 00 00 00 00 00 00  returns 0x0C (0001ms, 0441ms total)
T5208 004:650 JLINK_ReadMemEx(0x40008140, 0x0004 Bytes, ..., Flags = 0x02000004) -- CPU_ReadMem(4 bytes @ 0x40008140) - Data: 00 00 00 00  returns 0x04 (0000ms, 0441ms total)
T5208 004:650 JLINK_ReadMemEx(0x40008144, 0x0004 Bytes, ..., Flags = 0x02000004) -- CPU_ReadMem(4 bytes @ 0x40008144) - Data: 00 00 00 00  returns 0x04 (0001ms, 0442ms total)
T5208 004:651 JLINK_ReadMemEx(0x40008148, 0x0004 Bytes, ..., Flags = 0x02000004) -- CPU_ReadMem(4 bytes @ 0x40008148) - Data: 00 00 00 00  returns 0x04 (0000ms, 0442ms total)
T5208 004:651 JLINK_ReadMemEx(0x4000814C, 0x0004 Bytes, ..., Flags = 0x02000004) -- CPU_ReadMem(4 bytes @ 0x4000814C) - Data: 00 00 00 00  returns 0x04 (0001ms, 0443ms total)
T5208 004:652 JLINK_ReadMemEx(0x4000814C, 0x0004 Bytes, ..., Flags = 0x02000004) -- CPU_ReadMem(4 bytes @ 0x4000814C) - Data: 00 00 00 00  returns 0x04 (0000ms, 0443ms total)
T5208 004:652 JLINK_ReadMemEx(0x40008200, 0x0004 Bytes, ..., Flags = 0x02000004) -- CPU_ReadMem(4 bytes @ 0x40008200) - Data: 00 00 00 00  returns 0x04 (0001ms, 0444ms total)
T5208 004:653 JLINK_ReadMemEx(0x40008200, 0x0004 Bytes, ..., Flags = 0x02000004) -- CPU_ReadMem(4 bytes @ 0x40008200) - Data: 00 00 00 00  returns 0x04 (0000ms, 0444ms total)
T5208 004:653 JLINK_ReadMemEx(0x40008304, 0x0004 Bytes, ..., Flags = 0x02000004) -- CPU_ReadMem(4 bytes @ 0x40008304) - Data: 00 00 00 00  returns 0x04 (0001ms, 0445ms total)
T5208 004:654 JLINK_ReadMemEx(0x40008304, 0x0004 Bytes, ..., Flags = 0x02000004) -- CPU_ReadMem(4 bytes @ 0x40008304) - Data: 00 00 00 00  returns 0x04 (0000ms, 0445ms total)
T5208 004:654 JLINK_ReadMemEx(0x40008308, 0x0004 Bytes, ..., Flags = 0x02000004) -- CPU_ReadMem(4 bytes @ 0x40008308) - Data: 00 00 00 00  returns 0x04 (0001ms, 0446ms total)
T5208 004:655 JLINK_ReadMemEx(0x40008308, 0x0004 Bytes, ..., Flags = 0x02000004) -- CPU_ReadMem(4 bytes @ 0x40008308) - Data: 00 00 00 00  returns 0x04 (0000ms, 0446ms total)
T5208 004:655 JLINK_ReadMemEx(0x40008504, 0x0004 Bytes, ..., Flags = 0x02000004) -- CPU_ReadMem(4 bytes @ 0x40008504) - Data: 00 00 00 00  returns 0x04 (0001ms, 0447ms total)
T5208 004:656 JLINK_ReadMemEx(0x40008504, 0x0004 Bytes, ..., Flags = 0x02000004) -- CPU_ReadMem(4 bytes @ 0x40008504) - Data: 00 00 00 00  returns 0x04 (0000ms, 0447ms total)
T5208 004:656 JLINK_ReadMemEx(0x40008508, 0x0004 Bytes, ..., Flags = 0x02000004) -- CPU_ReadMem(4 bytes @ 0x40008508) - Data: 00 00 00 00  returns 0x04 (0001ms, 0448ms total)
T5208 004:657 JLINK_ReadMemEx(0x40008508, 0x0004 Bytes, ..., Flags = 0x02000004) -- CPU_ReadMem(4 bytes @ 0x40008508) - Data: 00 00 00 00  returns 0x04 (0000ms, 0448ms total)
T5208 004:657 JLINK_ReadMemEx(0x40008510, 0x0004 Bytes, ..., Flags = 0x02000004) -- CPU_ReadMem(4 bytes @ 0x40008510) - Data: 04 00 00 00  returns 0x04 (0001ms, 0449ms total)
T5208 004:658 JLINK_ReadMemEx(0x40008510, 0x0004 Bytes, ..., Flags = 0x02000004) -- CPU_ReadMem(4 bytes @ 0x40008510) - Data: 04 00 00 00  returns 0x04 (0000ms, 0449ms total)
T5208 004:658 JLINK_ReadMemEx(0x40008540, 0x000C Bytes, ..., Flags = 0x02000004) -- CPU_ReadMem(12 bytes @ 0x40008540) - Data: 00 00 00 00 00 00 00 00 00 00 00 00  returns 0x0C (0001ms, 0450ms total)
T5208 004:659 JLINK_ReadMemEx(0x40008540, 0x0004 Bytes, ..., Flags = 0x02000004) -- CPU_ReadMem(4 bytes @ 0x40008540) - Data: 00 00 00 00  returns 0x04 (0000ms, 0450ms total)
T5208 004:659 JLINK_ReadMemEx(0x40008544, 0x0004 Bytes, ..., Flags = 0x02000004) -- CPU_ReadMem(4 bytes @ 0x40008544) - Data: 00 00 00 00  returns 0x04 (0001ms, 0451ms total)
T5208 004:660 JLINK_ReadMemEx(0x40008548, 0x0004 Bytes, ..., Flags = 0x02000004) -- CPU_ReadMem(4 bytes @ 0x40008548) - Data: 00 00 00 00  returns 0x04 (0000ms, 0451ms total)
T5208 004:660 JLINK_ReadMemEx(0x4000854C, 0x0004 Bytes, ..., Flags = 0x02000004) -- CPU_ReadMem(4 bytes @ 0x4000854C) - Data: 00 00 00 00  returns 0x04 (0001ms, 0452ms total)
T5208 004:661 JLINK_ReadMemEx(0x4000854C, 0x0004 Bytes, ..., Flags = 0x02000004) -- CPU_ReadMem(4 bytes @ 0x4000854C) - Data: 00 00 00 00  returns 0x04 (0001ms, 0453ms total)
T5208 004:662 JLINK_ReadMemEx(0x40008FFC, 0x0004 Bytes, ..., Flags = 0x02000004) -- CPU_ReadMem(4 bytes @ 0x40008FFC) - Data: 01 00 00 00  returns 0x04 (0000ms, 0453ms total)
T5208 004:662 JLINK_ReadMemEx(0x40008FFC, 0x0004 Bytes, ..., Flags = 0x02000004) -- CPU_ReadMem(4 bytes @ 0x40008FFC) - Data: 01 00 00 00  returns 0x04 (0001ms, 0454ms total)
T5208 004:664 JLINK_ReadMemEx(0x00000580, 0x003C Bytes, ..., Flags = 0x02000000) -- CPU_ReadMem(64 bytes @ 0x00000580) -- Updating C cache (64 bytes @ 0x00000580) -- Read from C cache (60 bytes @ 0x00000580) - Data: 90 47 78 1C C7 B2 04 98 87 42 D3 DB 05 B0 F0 BD ...  returns 0x3C (0001ms, 0455ms total)
T5208 004:665 JLINK_ReadMemEx(0x000005BC, 0x003C Bytes, ..., Flags = 0x02000000) -- CPU_ReadMem(64 bytes @ 0x000005C0) -- Updating C cache (64 bytes @ 0x000005C0) -- Read from C cache (60 bytes @ 0x000005BC) - Data: FF F7 38 FF 70 BD 00 00 0C 48 00 8C C0 B2 01 28 ...  returns 0x3C (0001ms, 0456ms total)
T5208 004:666 JLINK_ReadMemEx(0x000005F8, 0x003C Bytes, ..., Flags = 0x02000000) -- CPU_ReadMem(64 bytes @ 0x00000600) -- Updating C cache (64 bytes @ 0x00000600) -- Read from C cache (60 bytes @ 0x000005F8) - Data: C0 0F 00 F0 19 48 00 8C C0 B2 01 28 2C D1 17 48 ...  returns 0x3C (0000ms, 0456ms total)
T5208 004:666 JLINK_ReadMemEx(0x00000634, 0x003C Bytes, ..., Flags = 0x02000000) -- CPU_ReadMem(64 bytes @ 0x00000640) -- Updating C cache (64 bytes @ 0x00000640) -- Read from C cache (60 bytes @ 0x00000634) - Data: 10 28 06 D1 0A 48 C0 6A 08 40 00 28 01 D1 01 20 ...  returns 0x3C (0001ms, 0457ms total)
T5208 004:667 JLINK_ReadMemEx(0x00000670, 0x003C Bytes, ..., Flags = 0x02000000) -- CPU_ReadMem(64 bytes @ 0x00000680) -- Updating C cache (64 bytes @ 0x00000680) -- Read from C cache (60 bytes @ 0x00000670) - Data: A5 FB 80 B2 00 28 01 D0 01 20 10 BD 00 20 FC E7 ...  returns 0x3C (0001ms, 0458ms total)
T8190 005:925 JLINK_ReadMemEx(0x00000680, 0x0002 Bytes, ..., Flags = 0x02000000) -- Read from C cache (2 bytes @ 0x00000680) - Data: 1F B5  returns 0x02 (0000ms, 0458ms total)
T8190 005:925 JLINK_Go() -- CPU_ReadMem(4 bytes @ 0xE0001000) -- CPU_WriteMem(4 bytes @ 0xE0001000) -- CPU_WriteMem(4 bytes @ 0xE0002008) (0003ms, 0461ms total)
T8190 006:029 JLINK_IsHalted()  returns FALSE (0001ms, 0462ms total)
T8190 006:131 JLINK_IsHalted()  returns FALSE (0000ms, 0461ms total)
T8190 006:232 JLINK_IsHalted()  returns FALSE (0000ms, 0461ms total)
T8190 006:333 JLINK_IsHalted()  returns FALSE (0000ms, 0461ms total)
T5208 006:435 JLINK_ReadMemEx(0x20000020, 0x0004 Bytes, ..., Flags = 0x02000000) -- CPU_ReadMem(4 bytes @ 0x20000020) - Data: 00 00 00 00  returns 0x04 (0001ms, 0462ms total)
T5208 006:436 JLINK_ReadMemEx(0x20000024, 0x0004 Bytes, ..., Flags = 0x02000000) -- CPU_ReadMem(4 bytes @ 0x20000024) - Data: 00 00 00 00  returns 0x04 (0001ms, 0463ms total)
T5208 006:438 JLINK_ReadMemEx(0x40009000, 0x0010 Bytes, ..., Flags = 0x02000004) -- CPU_ReadMem(16 bytes @ 0x40009000) - Data: 00 00 00 00 00 00 00 00 00 00 00 00 00 00 00 00  returns 0x10 (0001ms, 0464ms total)
T5208 006:439 JLINK_ReadMemEx(0x40009000, 0x0004 Bytes, ..., Flags = 0x02000004) -- CPU_ReadMem(4 bytes @ 0x40009000) - Data: 00 00 00 00  returns 0x04 (0001ms, 0465ms total)
T5208 006:440 JLINK_ReadMemEx(0x40009004, 0x0004 Bytes, ..., Flags = 0x02000004) -- CPU_ReadMem(4 bytes @ 0x40009004) - Data: 00 00 00 00  returns 0x04 (0000ms, 0465ms total)
T5208 006:440 JLINK_ReadMemEx(0x40009008, 0x0004 Bytes, ..., Flags = 0x02000004) -- CPU_ReadMem(4 bytes @ 0x40009008) - Data: 00 00 00 00  returns 0x04 (0001ms, 0466ms total)
T5208 006:441 JLINK_ReadMemEx(0x4000900C, 0x0004 Bytes, ..., Flags = 0x02000004) -- CPU_ReadMem(4 bytes @ 0x4000900C) - Data: 00 00 00 00  returns 0x04 (0001ms, 0467ms total)
T5208 006:442 JLINK_ReadMemEx(0x40009010, 0x0004 Bytes, ..., Flags = 0x02000004) -- CPU_ReadMem(4 bytes @ 0x40009010) - Data: 00 00 00 00  returns 0x04 (0000ms, 0467ms total)
T5208 006:442 JLINK_ReadMemEx(0x40009010, 0x0004 Bytes, ..., Flags = 0x02000004) -- CPU_ReadMem(4 bytes @ 0x40009010) - Data: 00 00 00 00  returns 0x04 (0001ms, 0468ms total)
T5208 006:443 JLINK_ReadMemEx(0x40009040, 0x000C Bytes, ..., Flags = 0x02000004) -- CPU_ReadMem(12 bytes @ 0x40009040) - Data: 00 00 00 00 00 00 00 00 00 00 00 00  returns 0x0C (0001ms, 0469ms total)
T5208 006:444 JLINK_ReadMemEx(0x40009040, 0x0004 Bytes, ..., Flags = 0x02000004) -- CPU_ReadMem(4 bytes @ 0x40009040) - Data: 00 00 00 00  returns 0x04 (0001ms, 0470ms total)
T5208 006:445 JLINK_ReadMemEx(0x40009044, 0x0004 Bytes, ..., Flags = 0x02000004) -- CPU_ReadMem(4 bytes @ 0x40009044) - Data: 00 00 00 00  returns 0x04 (0000ms, 0470ms total)
T5208 006:445 JLINK_ReadMemEx(0x40009048, 0x0004 Bytes, ..., Flags = 0x02000004) -- CPU_ReadMem(4 bytes @ 0x40009048) - Data: 00 00 00 00  returns 0x04 (0001ms, 0471ms total)
T5208 006:446 JLINK_ReadMemEx(0x4000904C, 0x0004 Bytes, ..., Flags = 0x02000004) -- CPU_ReadMem(4 bytes @ 0x4000904C) - Data: 00 00 00 00  returns 0x04 (0001ms, 0472ms total)
T5208 006:447 JLINK_ReadMemEx(0x4000904C, 0x0004 Bytes, ..., Flags = 0x02000004) -- CPU_ReadMem(4 bytes @ 0x4000904C) - Data: 00 00 00 00  returns 0x04 (0000ms, 0472ms total)
T5208 006:447 JLINK_ReadMemEx(0x40009140, 0x000C Bytes, ..., Flags = 0x02000004) -- CPU_ReadMem(12 bytes @ 0x40009140) - Data: 00 00 00 00 00 00 00 00 00 00 00 00  returns 0x0C (0001ms, 0473ms total)
T5208 006:448 JLINK_ReadMemEx(0x40009140, 0x0004 Bytes, ..., Flags = 0x02000004) -- CPU_ReadMem(4 bytes @ 0x40009140) - Data: 00 00 00 00  returns 0x04 (0000ms, 0473ms total)
T5208 006:448 JLINK_ReadMemEx(0x40009144, 0x0004 Bytes, ..., Flags = 0x02000004) -- CPU_ReadMem(4 bytes @ 0x40009144) - Data: 00 00 00 00  returns 0x04 (0001ms, 0474ms total)
T5208 006:449 JLINK_ReadMemEx(0x40009148, 0x0004 Bytes, ..., Flags = 0x02000004) -- CPU_ReadMem(4 bytes @ 0x40009148) - Data: 00 00 00 00  returns 0x04 (0000ms, 0474ms total)
T5208 006:449 JLINK_ReadMemEx(0x4000914C, 0x0004 Bytes, ..., Flags = 0x02000004) -- CPU_ReadMem(4 bytes @ 0x4000914C) - Data: 00 00 00 00  returns 0x04 (0001ms, 0475ms total)
T5208 006:450 JLINK_ReadMemEx(0x4000914C, 0x0004 Bytes, ..., Flags = 0x02000004) -- CPU_ReadMem(4 bytes @ 0x4000914C) - Data: 00 00 00 00  returns 0x04 (0000ms, 0475ms total)
T5208 006:450 JLINK_ReadMemEx(0x40009200, 0x0004 Bytes, ..., Flags = 0x02000004) -- CPU_ReadMem(4 bytes @ 0x40009200) - Data: 01 00 00 00  returns 0x04 (0001ms, 0476ms total)
T5208 006:451 JLINK_ReadMemEx(0x40009200, 0x0004 Bytes, ..., Flags = 0x02000004) -- CPU_ReadMem(4 bytes @ 0x40009200) - Data: 01 00 00 00  returns 0x04 (0000ms, 0476ms total)
T5208 006:451 JLINK_ReadMemEx(0x40009304, 0x0004 Bytes, ..., Flags = 0x02000004) -- CPU_ReadMem(4 bytes @ 0x40009304) - Data: 00 00 01 00  returns 0x04 (0001ms, 0477ms total)
